T1850 000:006.827   SEGGER J-Link V6.86 Log File
T1850 000:006.990   DLL Compiled: Sep 24 2020 17:31:31
T1850 000:007.001   Logging started @ 2021-04-16 14:22
T1850 000:007.010 - 7.015ms
T1850 000:007.027 JLINK_SetWarnOutHandler(...)
T1850 000:007.039 - 0.016ms
T1850 000:007.050 JLINK_OpenEx(...)
T1850 000:010.650   Firmware: J-Link V11 compiled Nov 12 2020 10:07:08
T1850 000:010.882   Decompressing FW timestamp took 172 us
T1850 000:020.372   Hardware: V11.00
T1850 000:020.415   S/N: 261010420
T1850 000:020.432   OEM: SEGGER-EDU
T1850 000:020.444   Feature(s): FlashBP, GDB
T1850 000:027.537   TELNET listener socket opened on port 19021
T1850 000:027.753   WEBSRV Starting webserver
T1850 000:027.919   WEBSRV Webserver running on local port 19080
T1850 000:027.935 - 20.889ms returns "O.K."
T1850 000:027.955 JLINK_GetEmuCaps()
T1850 000:027.964 - 0.012ms returns 0xB9FF7BBF
T1850 000:027.977 JLINK_TIF_GetAvailable(...)
T1850 000:028.903 - 0.941ms
T1850 000:028.933 JLINK_SetErrorOutHandler(...)
T1850 000:028.943 - 0.014ms
T1850 000:028.967 JLINK_ExecCommand("ProjectFile = "C:\Users\Stefano\Desktop\FILE_TESISTI\nRF5_SDK_14.2.0_17b948a\examples\ant\ant_broadcast\rx_final01\pca10040\s212\arm5_no_packs\JLinkSettings.ini"", ...). 
T1850 000:037.586 - 8.634ms returns 0x00
T1850 000:038.977 JLINK_ExecCommand("Device = nRF52832_xxAA", ...). 
T1850 000:040.249   Device "NRF52832_XXAA" selected.
T1850 000:040.673 - 1.679ms returns 0x00
T1850 000:040.697 JLINK_GetHardwareVersion()
T1850 000:040.705 - 0.012ms returns 110000
T1850 000:040.720 JLINK_GetDLLVersion()
T1850 000:040.729 - 0.012ms returns 68600
T1850 000:040.739 JLINK_GetOEMString(...)
T1850 000:058.985 JLINK_GetDLLVersion()
T1850 000:059.011 - 0.030ms returns 68600
T1850 000:059.022 JLINK_GetCompileDateTime()
T1850 000:059.031 - 0.012ms
T1850 000:063.526 JLINK_GetFirmwareString(...)
T1850 000:063.557 - 0.035ms
T1850 000:070.585 JLINK_GetHardwareVersion()
T1850 000:070.614 - 0.034ms returns 110000
T1850 000:079.923 JLINK_GetSN()
T1850 000:079.958 - 0.039ms returns 261010420
T1850 000:085.025 JLINK_GetOEMString(...)
T1850 000:100.805 JLINK_TIF_Select(JLINKARM_TIF_SWD)
T1850 000:105.932 - 5.137ms returns 0x00
T1850 000:105.953 JLINK_HasError()
T1850 000:105.971 JLINK_SetSpeed(5000)
T1850 000:107.364 - 1.401ms
T1850 000:107.383 JLINK_GetId()
T1850 000:113.391   InitTarget() start
T1850 000:113.425    J-Link Script File: Executing InitTarget()
T1850 000:128.548   InitTarget() end
T1850 000:135.347   Found SW-DP with ID 0x2BA01477
T1850 000:147.816   DPIDR: 0x2BA01477
T1850 000:156.213   Scanning AP map to find all available APs
T1850 000:164.741   AP[2]: Stopped AP scan as end of AP map has been reached
T1850 000:169.237   AP[0]: AHB-AP (IDR: 0x24770011)
T1850 000:173.274   AP[1]: JTAG-AP (IDR: 0x02880000)
T1850 000:177.214   Iterating through AP map to find AHB-AP to use
T1850 000:183.990   AP[0]: Core found
T1850 000:189.475   AP[0]: AHB-AP ROM base: 0xE00FF000
T1850 000:194.697   CPUID register: 0x410FC241. Implementer code: 0x41 (ARM)
T1850 000:200.573   Found Cortex-M4 r0p1, Little endian.
T1850 000:304.207   -- Max. mem block: 0x000043A8
T1850 000:304.297   CPU_ReadMem(4 bytes @ 0xE000EDF0)
T1850 000:307.146   CPU_WriteMem(4 bytes @ 0xE000EDF0)
T1850 000:308.549   CPU_ReadMem(4 bytes @ 0xE0002000)
T1850 000:320.545   FPUnit: 6 code (BP) slots and 2 literal slots
T1850 000:320.620   CPU_ReadMem(4 bytes @ 0xE000EDFC)
T1850 000:321.615   CPU_WriteMem(4 bytes @ 0xE000EDFC)
T1850 000:323.010   CPU_ReadMem(4 bytes @ 0xE0001000)
T1850 000:324.414   CPU_WriteMem(4 bytes @ 0xE0001000)
T1850 000:325.813   CPU_ReadMem(4 bytes @ 0xE000ED88)
T1850 000:327.231   CPU_WriteMem(4 bytes @ 0xE000ED88)
T1850 000:328.625   CPU_ReadMem(4 bytes @ 0xE000ED88)
T1850 000:330.070   CPU_WriteMem(4 bytes @ 0xE000ED88)
T1850 000:340.825   CoreSight components:
T1850 000:349.516   ROMTbl[0] @ E00FF000
T1850 000:349.586   CPU_ReadMem(64 bytes @ 0xE00FF000)
T1850 000:350.564   CPU_ReadMem(32 bytes @ 0xE000EFE0)
T1850 000:361.119   ROMTbl[0][0]: E000E000, CID: B105E00D, PID: 000BB00C SCS-M7
T1850 000:361.322   CPU_ReadMem(32 bytes @ 0xE0001FE0)
T1850 000:371.875   ROMTbl[0][1]: E0001000, CID: B105E00D, PID: 003BB002 DWT
T1850 000:371.924   CPU_ReadMem(32 bytes @ 0xE0002FE0)
T1850 000:377.859   ROMTbl[0][2]: E0002000, CID: B105E00D, PID: 002BB003 FPB
T1850 000:377.889   CPU_ReadMem(32 bytes @ 0xE0000FE0)
T1850 000:388.879   ROMTbl[0][3]: E0000000, CID: B105E00D, PID: 003BB001 ITM
T1850 000:388.929   CPU_ReadMem(32 bytes @ 0xE0040FE0)
T1850 000:395.633   ROMTbl[0][4]: E0040000, CID: B105900D, PID: 000BB9A1 TPIU
T1850 000:395.680   CPU_ReadMem(32 bytes @ 0xE0041FE0)
T1850 000:404.016   ROMTbl[0][5]: E0041000, CID: B105900D, PID: 000BB925 ETM
T1850 000:405.112 - 297.747ms returns 0x2BA01477
T1850 000:405.150 JLINK_GetDLLVersion()
T1850 000:405.165 - 0.019ms returns 68600
T1850 000:405.264 JLINK_CORE_GetFound()
T1850 000:405.290 - 0.033ms returns 0xE0000FF
T1850 000:405.308 JLINK_GetDebugInfo(0x100 = JLINKARM_ROM_TABLE_ADDR_INDEX)
T1850 000:405.323   Value=0xE00FF000
T1850 000:405.337 - 0.033ms returns 0
T1850 000:410.392 JLINK_GetDebugInfo(0x100 = JLINKARM_ROM_TABLE_ADDR_INDEX)
T1850 000:410.416   Value=0xE00FF000
T1850 000:410.431 - 0.043ms returns 0
T1850 000:410.443 JLINK_GetDebugInfo(0x101 = JLINKARM_DEBUG_INFO_ETM_ADDR_INDEX)
T1850 000:410.454   Value=0xE0041000
T1850 000:410.467 - 0.028ms returns 0
T1850 000:410.486 JLINK_ReadMemEx(0xE0041FD0, 0x20 Bytes, Flags = 0x02000004)
T1850 000:410.521   CPU_ReadMem(32 bytes @ 0xE0041FD0)
T1850 000:411.835   Data:  04 00 00 00 00 00 00 00 00 00 00 00 00 00 00 00 ...
T1850 000:411.862 - 1.381ms returns 32 (0x20)
T1850 000:411.877 JLINK_GetDebugInfo(0x102 = JLINKARM_DEBUG_INFO_MTB_ADDR_INDEX)
T1850 000:411.888   Value=0x00000000
T1850 000:411.901 - 0.029ms returns 0
T1850 000:411.913 JLINK_GetDebugInfo(0x103 = JLINKARM_DEBUG_INFO_TPIU_ADDR_INDEX)
T1850 000:411.923   Value=0xE0040000
T1850 000:411.936 - 0.028ms returns 0
T1850 000:411.948 JLINK_GetDebugInfo(0x104 = JLINKARM_DEBUG_INFO_ITM_ADDR_INDEX)
T1850 000:411.958   Value=0xE0000000
T1850 000:411.971 - 0.028ms returns 0
T1850 000:411.982 JLINK_GetDebugInfo(0x105 = JLINKARM_DEBUG_INFO_DWT_ADDR_INDEX)
T1850 000:411.992   Value=0xE0001000
T1850 000:412.005 - 0.027ms returns 0
T1850 000:412.017 JLINK_GetDebugInfo(0x106 = JLINKARM_DEBUG_INFO_FPB_ADDR_INDEX)
T1850 000:412.026   Value=0xE0002000
T1850 000:412.039 - 0.027ms returns 0
T1850 000:412.051 JLINK_GetDebugInfo(0x107 = JLINKARM_DEBUG_INFO_NVIC_ADDR_INDEX)
T1850 000:412.060   Value=0xE000E000
T1850 000:412.074 - 0.027ms returns 0
T1850 000:412.085 JLINK_GetDebugInfo(0x10C = JLINKARM_DEBUG_INFO_DBG_ADDR_INDEX)
T1850 000:412.095   Value=0xE000EDF0
T1850 000:412.108 - 0.027ms returns 0
T1850 000:412.119 JLINK_GetDebugInfo(0x01 = Unknown)
T1850 000:412.129   Value=0x00000001
T1850 000:412.142 - 0.027ms returns 0
T1850 000:412.154 JLINK_ReadMemU32(0xE000ED00, 0x1 Items)
T1850 000:412.171   CPU_ReadMem(4 bytes @ 0xE000ED00)
T1850 000:413.117   Data:  41 C2 0F 41
T1850 000:413.150   Debug reg: CPUID
T1850 000:413.165 - 1.015ms returns 1 (0x1)
T1850 000:413.180 JLINK_GetDebugInfo(0x10F = JLINKARM_DEBUG_INFO_HAS_CORTEX_M_SECURITY_EXT_INDEX)
T1850 000:413.191   Value=0x00000000
T1850 000:413.204 - 0.029ms returns 0
T1850 000:413.216 JLINK_HasError()
T1850 000:413.228 JLINK_SetResetType(JLINKARM_CM3_RESET_TYPE_NORMAL)
T1850 000:413.238 - 0.014ms returns JLINKARM_CM3_RESET_TYPE_NORMAL
T1850 000:413.250 JLINK_Reset()
T1850 000:413.339   CPU is running
T1850 000:413.378   CPU_WriteMem(4 bytes @ 0xE000EDF0)
T1850 000:414.357   CPU is running
T1850 000:414.397   CPU_WriteMem(4 bytes @ 0xE000EDFC)
T1850 000:421.628   Reset: Halt core after reset via DEMCR.VC_CORERESET.
T1850 000:428.807   Reset: Reset device via AIRCR.SYSRESETREQ.
T1850 000:428.837   CPU is running
T1850 000:428.856   CPU_WriteMem(4 bytes @ 0xE000ED0C)
T1850 000:483.651   CPU_ReadMem(4 bytes @ 0xE000EDF0)
T1850 000:485.137   CPU_ReadMem(4 bytes @ 0xE000EDF0)
T1850 000:486.542   CPU is running
T1850 000:486.614   CPU_WriteMem(4 bytes @ 0xE000EDF0)
T1850 000:488.026   CPU is running
T1850 000:488.083   CPU_WriteMem(4 bytes @ 0xE000EDFC)
T1850 000:495.358   CPU_ReadMem(4 bytes @ 0xE000EDF0)
T1850 000:500.517   CPU_WriteMem(4 bytes @ 0xE0002000)
T1850 000:501.715   CPU_ReadMem(4 bytes @ 0xE000EDFC)
T1850 000:503.216   CPU_ReadMem(4 bytes @ 0xE0001000)
T1850 000:504.633 - 91.416ms
T1850 000:504.695 JLINK_Halt()
T1850 000:504.715 - 0.028ms returns 0x00
T1850 000:504.740 JLINK_ReadMemU32(0xE000EDF0, 0x1 Items)
T1850 000:504.775   CPU_ReadMem(4 bytes @ 0xE000EDF0)
T1850 000:506.007   Data:  03 00 03 00
T1850 000:506.055   Debug reg: DHCSR
T1850 000:506.080 - 1.348ms returns 1 (0x1)
T1850 000:506.241 JLINK_WriteU32_64(0xE000EDF0, 0xA05F0003)
T1850 000:506.311   Debug reg: DHCSR
T1850 000:506.372   CPU_WriteMem(4 bytes @ 0xE000EDF0)
T1850 000:507.364 - 1.158ms returns 0 (0x00000000)
T1850 000:507.421 JLINK_WriteU32_64(0xE000EDFC, 0x01000000)
T1850 000:507.441   Debug reg: DEMCR
T1850 000:507.481   CPU_WriteMem(4 bytes @ 0xE000EDFC)
T1850 000:508.761 - 1.373ms returns 0 (0x00000000)
T1850 000:547.108 JLINK_GetHWStatus(...)
T1850 000:548.154 - 1.082ms returns 0
T1850 000:578.058 JLINK_GetNumBPUnits(Type = 0xFFFFFF00)
T1850 000:578.113 - 0.065ms returns 0x06
T1850 000:578.137 JLINK_GetNumBPUnits(Type = 0xF0)
T1850 000:578.155 - 0.026ms returns 0x2000
T1850 000:578.176 JLINK_GetNumWPUnits()
T1850 000:578.193 - 0.025ms returns 4
T1850 000:602.229 JLINK_GetSpeed()
T1850 000:602.272 - 0.048ms returns 5000
T1850 000:612.859 JLINK_ReadMemU32(0xE000E004, 0x1 Items)
T1850 000:612.904   CPU_ReadMem(4 bytes @ 0xE000E004)
T1850 000:613.780   Data:  01 00 00 00
T1850 000:613.808 - 0.952ms returns 1 (0x1)
T1850 000:613.830 JLINK_ReadMemU32(0xE000E004, 0x1 Items)
T1850 000:613.845   CPU_ReadMem(4 bytes @ 0xE000E004)
T1850 000:615.184   Data:  01 00 00 00
T1850 000:615.219 - 1.395ms returns 1 (0x1)
T1850 000:615.237 JLINK_WriteMemEx(0xE0001000, 0x0000001C Bytes, Flags = 0x02000004)
T1850 000:615.248   Data:  01 00 00 00 00 00 00 00 00 00 00 00 00 00 00 00 ...
T1850 000:615.681   CPU_WriteMem(28 bytes @ 0xE0001000)
T1850 000:616.803 - 1.583ms returns 0x1C
T1850 000:616.836 JLINK_Halt()
T1850 000:616.849 - 0.019ms returns 0x00
T1850 000:616.863 JLINK_IsHalted()
T1850 000:616.873 - 0.014ms returns TRUE
T1850 000:621.359 JLINK_WriteMem(0x20000000, 0x234 Bytes, ...)
T1850 000:621.378   Data:  00 BE 0A E0 0D 78 2D 06 68 40 08 24 40 00 00 D3 ...
T1850 000:621.738   CPU_WriteMem(564 bytes @ 0x20000000)
T1850 000:624.381 - 3.036ms returns 0x234
T1850 000:624.435 JLINK_HasError()
T1850 000:624.449 JLINK_WriteReg(R0, 0x00000000)
T1850 000:624.460 - 0.016ms returns 0
T1850 000:624.470 JLINK_WriteReg(R1, 0x03D09000)
T1850 000:624.479 - 0.012ms returns 0
T1850 000:624.488 JLINK_WriteReg(R2, 0x00000001)
T1850 000:624.497 - 0.012ms returns 0
T1850 000:624.506 JLINK_WriteReg(R3, 0x00000000)
T1850 000:624.515 - 0.012ms returns 0
T1850 000:624.525 JLINK_WriteReg(R4, 0x00000000)
T1850 000:624.533 - 0.012ms returns 0
T1850 000:624.543 JLINK_WriteReg(R5, 0x00000000)
T1850 000:624.551 - 0.012ms returns 0
T1850 000:624.561 JLINK_WriteReg(R6, 0x00000000)
T1850 000:624.569 - 0.012ms returns 0
T1850 000:624.579 JLINK_WriteReg(R7, 0x00000000)
T1850 000:624.587 - 0.012ms returns 0
T1850 000:624.597 JLINK_WriteReg(R8, 0x00000000)
T1850 000:624.614 - 0.021ms returns 0
T1850 000:624.624 JLINK_WriteReg(R9, 0x20000230)
T1850 000:624.632 - 0.012ms returns 0
T1850 000:624.642 JLINK_WriteReg(R10, 0x00000000)
T1850 000:624.650 - 0.012ms returns 0
T1850 000:624.660 JLINK_WriteReg(R11, 0x00000000)
T1850 000:624.668 - 0.012ms returns 0
T1850 000:624.678 JLINK_WriteReg(R12, 0x00000000)
T1850 000:624.686 - 0.012ms returns 0
T1850 000:624.696 JLINK_WriteReg(R13 (SP), 0x20002000)
T1850 000:624.705 - 0.013ms returns 0
T1850 000:624.715 JLINK_WriteReg(R14, 0x20000001)
T1850 000:624.723 - 0.012ms returns 0
T1850 000:624.733 JLINK_WriteReg(R15 (PC), 0x2000003C)
T1850 000:624.745 - 0.016ms returns 0
T1850 000:624.761 JLINK_WriteReg(XPSR, 0x01000000)
T1850 000:624.772 - 0.015ms returns 0
T1850 000:624.782 JLINK_WriteReg(MSP, 0x20002000)
T1850 000:624.790 - 0.012ms returns 0
T1850 000:624.799 JLINK_WriteReg(PSP, 0x20002000)
T1850 000:624.808 - 0.012ms returns 0
T1850 000:624.817 JLINK_WriteReg(CFBP, 0x00000000)
T1850 000:624.826 - 0.012ms returns 0
T1850 000:624.836 JLINK_SetBPEx(Addr = 0x20000000, Type = 0xFFFFFFF2)
T1850 000:624.849   CPU_ReadMem(2 bytes @ 0x20000000)
T1850 000:625.870 - 1.048ms returns 0x00000001
T1850 000:625.895 JLINK_Go()
T1850 000:625.912   CPU_WriteMem(2 bytes @ 0x20000000)
T1850 000:627.262   CPU_ReadMem(4 bytes @ 0xE0001000)
T1850 000:628.682   CPU_WriteMem(4 bytes @ 0xE0002008)
T1850 000:628.711   CPU_WriteMem(4 bytes @ 0xE000200C)
T1850 000:628.730   CPU_WriteMem(4 bytes @ 0xE0002010)
T1850 000:628.745   CPU_WriteMem(4 bytes @ 0xE0002014)
T1850 000:628.757   CPU_WriteMem(4 bytes @ 0xE0002018)
T1850 000:628.769   CPU_WriteMem(4 bytes @ 0xE000201C)
T1850 000:630.389   CPU_WriteMem(4 bytes @ 0xE0001004)
T1850 000:634.804 - 8.931ms
T1850 000:634.841 JLINK_IsHalted()
T1850 000:638.959   CPU_ReadMem(2 bytes @ 0x20000000)
T1850 000:640.225 - 5.399ms returns TRUE
T1850 000:640.254 JLINK_ReadReg(R15 (PC))
T1850 000:640.270 - 0.022ms returns 0x20000000
T1850 000:640.360 JLINK_ClrBPEx(BPHandle = 0x00000001)
T1850 000:640.386 - 0.031ms returns 0x00
T1850 000:640.401 JLINK_ReadReg(R0)
T1850 000:640.414 - 0.019ms returns 0x00000000
T1850 000:640.800 JLINK_HasError()
T1850 000:640.815 JLINK_WriteReg(R0, 0x00012000)
T1850 000:640.826 - 0.015ms returns 0
T1850 000:640.836 JLINK_WriteReg(R1, 0x00001000)
T1850 000:640.845 - 0.012ms returns 0
T1850 000:640.855 JLINK_WriteReg(R2, 0x000000FF)
T1850 000:640.863 - 0.014ms returns 0
T1850 000:640.875 JLINK_WriteReg(R3, 0x00000000)
T1850 000:640.884 - 0.013ms returns 0
T1850 000:640.893 JLINK_WriteReg(R4, 0x00000000)
T1850 000:640.902 - 0.012ms returns 0
T1850 000:640.912 JLINK_WriteReg(R5, 0x00000000)
T1850 000:640.920 - 0.012ms returns 0
T1850 000:640.930 JLINK_WriteReg(R6, 0x00000000)
T1850 000:640.938 - 0.012ms returns 0
T1850 000:640.948 JLINK_WriteReg(R7, 0x00000000)
T1850 000:640.956 - 0.012ms returns 0
T1850 000:640.966 JLINK_WriteReg(R8, 0x00000000)
T1850 000:640.975 - 0.012ms returns 0
T1850 000:640.985 JLINK_WriteReg(R9, 0x20000230)
T1850 000:640.993 - 0.012ms returns 0
T1850 000:641.003 JLINK_WriteReg(R10, 0x00000000)
T1850 000:641.011 - 0.012ms returns 0
T1850 000:641.021 JLINK_WriteReg(R11, 0x00000000)
T1850 000:641.030 - 0.012ms returns 0
T1850 000:641.039 JLINK_WriteReg(R12, 0x00000000)
T1850 000:641.048 - 0.012ms returns 0
T1850 000:641.057 JLINK_WriteReg(R13 (SP), 0x20002000)
T1850 000:641.066 - 0.013ms returns 0
T1850 000:641.076 JLINK_WriteReg(R14, 0x20000001)
T1850 000:641.084 - 0.012ms returns 0
T1850 000:641.094 JLINK_WriteReg(R15 (PC), 0x2000011A)
T1850 000:641.103 - 0.012ms returns 0
T1850 000:641.112 JLINK_WriteReg(XPSR, 0x01000000)
T1850 000:641.121 - 0.012ms returns 0
T1850 000:641.130 JLINK_WriteReg(MSP, 0x20002000)
T1850 000:641.139 - 0.012ms returns 0
T1850 000:641.149 JLINK_WriteReg(PSP, 0x20002000)
T1850 000:641.157 - 0.012ms returns 0
T1850 000:641.167 JLINK_WriteReg(CFBP, 0x00000000)
T1850 000:641.175 - 0.012ms returns 0
T1850 000:641.185 JLINK_SetBPEx(Addr = 0x20000000, Type = 0xFFFFFFF2)
T1850 000:641.195 - 0.013ms returns 0x00000002
T1850 000:641.204 JLINK_Go()
T1850 000:641.241   CPU_ReadMem(4 bytes @ 0xE0001000)
T1850 000:646.325 - 5.144ms
T1850 000:646.361 JLINK_IsHalted()
T1850 000:650.080   CPU_ReadMem(2 bytes @ 0x20000000)
T1850 000:651.325 - 4.982ms returns TRUE
T1850 000:651.357 JLINK_ReadReg(R15 (PC))
T1850 000:651.374 - 0.022ms returns 0x20000000
T1850 000:651.386 JLINK_ClrBPEx(BPHandle = 0x00000002)
T1850 000:651.395 - 0.014ms returns 0x00
T1850 000:651.406 JLINK_ReadReg(R0)
T1850 000:651.416 - 0.014ms returns 0x00000001
T1850 000:651.427 JLINK_HasError()
T1850 000:651.439 JLINK_WriteReg(R0, 0x00012000)
T1850 000:651.449 - 0.100ms returns 0
T1850 000:651.552 JLINK_WriteReg(R1, 0x00001000)
T1850 000:651.563 - 0.015ms returns 0
T1850 000:651.574 JLINK_WriteReg(R2, 0x000000FF)
T1850 000:651.583 - 0.013ms returns 0
T1850 000:651.594 JLINK_WriteReg(R3, 0x00000000)
T1850 000:651.603 - 0.014ms returns 0
T1850 000:651.614 JLINK_WriteReg(R4, 0x00000000)
T1850 000:651.623 - 0.013ms returns 0
T1850 000:651.633 JLINK_WriteReg(R5, 0x00000000)
T1850 000:651.643 - 0.013ms returns 0
T1850 000:651.653 JLINK_WriteReg(R6, 0x00000000)
T1850 000:651.663 - 0.013ms returns 0
T1850 000:651.673 JLINK_WriteReg(R7, 0x00000000)
T1850 000:651.682 - 0.013ms returns 0
T1850 000:651.693 JLINK_WriteReg(R8, 0x00000000)
T1850 000:651.702 - 0.013ms returns 0
T1850 000:651.712 JLINK_WriteReg(R9, 0x20000230)
T1850 000:651.722 - 0.013ms returns 0
T1850 000:651.732 JLINK_WriteReg(R10, 0x00000000)
T1850 000:651.742 - 0.013ms returns 0
T1850 000:651.752 JLINK_WriteReg(R11, 0x00000000)
T1850 000:651.762 - 0.013ms returns 0
T1850 000:651.772 JLINK_WriteReg(R12, 0x00000000)
T1850 000:651.781 - 0.013ms returns 0
T1850 000:651.792 JLINK_WriteReg(R13 (SP), 0x20002000)
T1850 000:651.801 - 0.014ms returns 0
T1850 000:651.812 JLINK_WriteReg(R14, 0x20000001)
T1850 000:651.821 - 0.013ms returns 0
T1850 000:651.832 JLINK_WriteReg(R15 (PC), 0x200000D8)
T1850 000:651.841 - 0.014ms returns 0
T1850 000:651.852 JLINK_WriteReg(XPSR, 0x01000000)
T1850 000:651.861 - 0.013ms returns 0
T1850 000:651.871 JLINK_WriteReg(MSP, 0x20002000)
T1850 000:651.880 - 0.013ms returns 0
T1850 000:651.891 JLINK_WriteReg(PSP, 0x20002000)
T1850 000:651.900 - 0.013ms returns 0
T1850 000:651.911 JLINK_WriteReg(CFBP, 0x00000000)
T1850 000:651.920 - 0.013ms returns 0
T1850 000:651.931 JLINK_SetBPEx(Addr = 0x20000000, Type = 0xFFFFFFF2)
T1850 000:651.941 - 0.015ms returns 0x00000003
T1850 000:651.960 JLINK_Go()
T1850 000:651.976   CPU_ReadMem(4 bytes @ 0xE0001000)
T1850 000:657.013 - 5.068ms
T1850 000:657.038 JLINK_IsHalted()
T1850 000:658.251 - 1.227ms returns FALSE
T1850 000:658.276 JLINK_HasError()
T1850 000:672.244 JLINK_IsHalted()
T1850 000:675.809   CPU_ReadMem(2 bytes @ 0x20000000)
T1850 000:676.520 - 4.301ms returns TRUE
T1850 000:676.557 JLINK_ReadReg(R15 (PC))
T1850 000:676.591 - 0.039ms returns 0x20000000
T1850 000:676.603 JLINK_ClrBPEx(BPHandle = 0x00000003)
T1850 000:676.613 - 0.014ms returns 0x00
T1850 000:676.623 JLINK_ReadReg(R0)
T1850 000:676.633 - 0.013ms returns 0x00000000
T1850 000:677.246 JLINK_HasError()
T1850 000:677.262 JLINK_WriteReg(R0, 0x00013000)
T1850 000:677.274 - 0.016ms returns 0
T1850 000:677.284 JLINK_WriteReg(R1, 0x00001000)
T1850 000:677.294 - 0.014ms returns 0
T1850 000:677.304 JLINK_WriteReg(R2, 0x000000FF)
T1850 000:677.313 - 0.013ms returns 0
T1850 000:677.323 JLINK_WriteReg(R3, 0x00000000)
T1850 000:677.332 - 0.013ms returns 0
T1850 000:677.342 JLINK_WriteReg(R4, 0x00000000)
T1850 000:677.351 - 0.013ms returns 0
T1850 000:677.362 JLINK_WriteReg(R5, 0x00000000)
T1850 000:677.371 - 0.013ms returns 0
T1850 000:677.381 JLINK_WriteReg(R6, 0x00000000)
T1850 000:677.390 - 0.013ms returns 0
T1850 000:677.400 JLINK_WriteReg(R7, 0x00000000)
T1850 000:677.416 - 0.020ms returns 0
T1850 000:677.427 JLINK_WriteReg(R8, 0x00000000)
T1850 000:677.436 - 0.013ms returns 0
T1850 000:677.446 JLINK_WriteReg(R9, 0x20000230)
T1850 000:677.455 - 0.013ms returns 0
T1850 000:677.466 JLINK_WriteReg(R10, 0x00000000)
T1850 000:677.475 - 0.013ms returns 0
T1850 000:677.485 JLINK_WriteReg(R11, 0x00000000)
T1850 000:677.494 - 0.013ms returns 0
T1850 000:677.504 JLINK_WriteReg(R12, 0x00000000)
T1850 000:677.514 - 0.013ms returns 0
T1850 000:677.524 JLINK_WriteReg(R13 (SP), 0x20002000)
T1850 000:677.533 - 0.014ms returns 0
T1850 000:677.544 JLINK_WriteReg(R14, 0x20000001)
T1850 000:677.553 - 0.013ms returns 0
T1850 000:677.563 JLINK_WriteReg(R15 (PC), 0x2000011A)
T1850 000:677.572 - 0.013ms returns 0
T1850 000:677.582 JLINK_WriteReg(XPSR, 0x01000000)
T1850 000:677.592 - 0.013ms returns 0
T1850 000:677.602 JLINK_WriteReg(MSP, 0x20002000)
T1850 000:677.617 - 0.023ms returns 0
T1850 000:677.632 JLINK_WriteReg(PSP, 0x20002000)
T1850 000:677.641 - 0.013ms returns 0
T1850 000:677.651 JLINK_WriteReg(CFBP, 0x00000000)
T1850 000:677.660 - 0.013ms returns 0
T1850 000:677.670 JLINK_SetBPEx(Addr = 0x20000000, Type = 0xFFFFFFF2)
T1850 000:677.681 - 0.014ms returns 0x00000004
T1850 000:677.691 JLINK_Go()
T1850 000:677.708   CPU_ReadMem(4 bytes @ 0xE0001000)
T1850 000:681.905 - 4.240ms
T1850 000:681.944 JLINK_IsHalted()
T1850 000:686.077   CPU_ReadMem(2 bytes @ 0x20000000)
T1850 000:687.405 - 5.477ms returns TRUE
T1850 000:687.433 JLINK_ReadReg(R15 (PC))
T1850 000:687.450 - 0.023ms returns 0x20000000
T1850 000:687.463 JLINK_ClrBPEx(BPHandle = 0x00000004)
T1850 000:687.473 - 0.014ms returns 0x00
T1850 000:687.484 JLINK_ReadReg(R0)
T1850 000:687.493 - 0.013ms returns 0x00000001
T1850 000:687.504 JLINK_HasError()
T1850 000:687.514 JLINK_WriteReg(R0, 0x00013000)
T1850 000:687.524 - 0.014ms returns 0
T1850 000:687.534 JLINK_WriteReg(R1, 0x00001000)
T1850 000:687.543 - 0.013ms returns 0
T1850 000:687.553 JLINK_WriteReg(R2, 0x000000FF)
T1850 000:687.562 - 0.013ms returns 0
T1850 000:687.572 JLINK_WriteReg(R3, 0x00000000)
T1850 000:687.581 - 0.013ms returns 0
T1850 000:687.592 JLINK_WriteReg(R4, 0x00000000)
T1850 000:687.600 - 0.013ms returns 0
T1850 000:687.611 JLINK_WriteReg(R5, 0x00000000)
T1850 000:687.619 - 0.013ms returns 0
T1850 000:687.630 JLINK_WriteReg(R6, 0x00000000)
T1850 000:687.638 - 0.013ms returns 0
T1850 000:687.649 JLINK_WriteReg(R7, 0x00000000)
T1850 000:687.658 - 0.013ms returns 0
T1850 000:687.668 JLINK_WriteReg(R8, 0x00000000)
T1850 000:687.677 - 0.013ms returns 0
T1850 000:687.687 JLINK_WriteReg(R9, 0x20000230)
T1850 000:687.696 - 0.013ms returns 0
T1850 000:687.706 JLINK_WriteReg(R10, 0x00000000)
T1850 000:687.715 - 0.013ms returns 0
T1850 000:687.725 JLINK_WriteReg(R11, 0x00000000)
T1850 000:687.734 - 0.013ms returns 0
T1850 000:687.744 JLINK_WriteReg(R12, 0x00000000)
T1850 000:687.755 - 0.015ms returns 0
T1850 000:687.765 JLINK_WriteReg(R13 (SP), 0x20002000)
T1850 000:687.774 - 0.013ms returns 0
T1850 000:687.785 JLINK_WriteReg(R14, 0x20000001)
T1850 000:687.794 - 0.013ms returns 0
T1850 000:687.804 JLINK_WriteReg(R15 (PC), 0x200000D8)
T1850 000:687.813 - 0.013ms returns 0
T1850 000:687.823 JLINK_WriteReg(XPSR, 0x01000000)
T1850 000:687.832 - 0.013ms returns 0
T1850 000:687.842 JLINK_WriteReg(MSP, 0x20002000)
T1850 000:687.851 - 0.013ms returns 0
T1850 000:687.861 JLINK_WriteReg(PSP, 0x20002000)
T1850 000:687.870 - 0.013ms returns 0
T1850 000:687.880 JLINK_WriteReg(CFBP, 0x00000000)
T1850 000:687.889 - 0.013ms returns 0
T1850 000:687.900 JLINK_SetBPEx(Addr = 0x20000000, Type = 0xFFFFFFF2)
T1850 000:687.910 - 0.014ms returns 0x00000005
T1850 000:687.920 JLINK_Go()
T1850 000:687.936   CPU_ReadMem(4 bytes @ 0xE0001000)
T1850 000:692.250 - 4.345ms
T1850 000:692.280 JLINK_IsHalted()
T1850 000:693.606 - 1.341ms returns FALSE
T1850 000:693.636 JLINK_HasError()
T1850 000:695.600 JLINK_IsHalted()
T1850 000:699.187   CPU_ReadMem(2 bytes @ 0x20000000)
T1850 000:699.895 - 4.311ms returns TRUE
T1850 000:699.925 JLINK_ReadReg(R15 (PC))
T1850 000:699.943 - 0.024ms returns 0x20000000
T1850 000:699.956 JLINK_ClrBPEx(BPHandle = 0x00000005)
T1850 000:699.967 - 0.015ms returns 0x00
T1850 000:699.977 JLINK_ReadReg(R0)
T1850 000:699.987 - 0.014ms returns 0x00000000
T1850 000:700.671 JLINK_HasError()
T1850 000:700.691 JLINK_WriteReg(R0, 0x00014000)
T1850 000:700.703 - 0.017ms returns 0
T1850 000:700.715 JLINK_WriteReg(R1, 0x00001000)
T1850 000:700.724 - 0.014ms returns 0
T1850 000:700.735 JLINK_WriteReg(R2, 0x000000FF)
T1850 000:700.745 - 0.014ms returns 0
T1850 000:700.755 JLINK_WriteReg(R3, 0x00000000)
T1850 000:700.765 - 0.014ms returns 0
T1850 000:700.775 JLINK_WriteReg(R4, 0x00000000)
T1850 000:700.785 - 0.014ms returns 0
T1850 000:700.795 JLINK_WriteReg(R5, 0x00000000)
T1850 000:700.805 - 0.014ms returns 0
T1850 000:700.815 JLINK_WriteReg(R6, 0x00000000)
T1850 000:700.825 - 0.020ms returns 0
T1850 000:700.846 JLINK_WriteReg(R7, 0x00000000)
T1850 000:700.856 - 0.014ms returns 0
T1850 000:700.867 JLINK_WriteReg(R8, 0x00000000)
T1850 000:700.877 - 0.014ms returns 0
T1850 000:700.887 JLINK_WriteReg(R9, 0x20000230)
T1850 000:700.897 - 0.014ms returns 0
T1850 000:700.907 JLINK_WriteReg(R10, 0x00000000)
T1850 000:700.917 - 0.014ms returns 0
T1850 000:700.927 JLINK_WriteReg(R11, 0x00000000)
T1850 000:700.937 - 0.014ms returns 0
T1850 000:700.947 JLINK_WriteReg(R12, 0x00000000)
T1850 000:700.957 - 0.014ms returns 0
T1850 000:700.967 JLINK_WriteReg(R13 (SP), 0x20002000)
T1850 000:700.977 - 0.014ms returns 0
T1850 000:700.988 JLINK_WriteReg(R14, 0x20000001)
T1850 000:700.998 - 0.014ms returns 0
T1850 000:701.008 JLINK_WriteReg(R15 (PC), 0x2000011A)
T1850 000:701.018 - 0.014ms returns 0
T1850 000:701.029 JLINK_WriteReg(XPSR, 0x01000000)
T1850 000:701.038 - 0.014ms returns 0
T1850 000:701.049 JLINK_WriteReg(MSP, 0x20002000)
T1850 000:701.058 - 0.014ms returns 0
T1850 000:701.068 JLINK_WriteReg(PSP, 0x20002000)
T1850 000:701.078 - 0.014ms returns 0
T1850 000:701.089 JLINK_WriteReg(CFBP, 0x00000000)
T1850 000:701.098 - 0.014ms returns 0
T1850 000:701.109 JLINK_SetBPEx(Addr = 0x20000000, Type = 0xFFFFFFF2)
T1850 000:701.120 - 0.015ms returns 0x00000006
T1850 000:701.131 JLINK_Go()
T1850 000:701.149   CPU_ReadMem(4 bytes @ 0xE0001000)
T1850 000:705.554 - 4.456ms
T1850 000:705.600 JLINK_IsHalted()
T1850 000:709.287   CPU_ReadMem(2 bytes @ 0x20000000)
T1850 000:710.101 - 4.533ms returns TRUE
T1850 000:710.144 JLINK_ReadReg(R15 (PC))
T1850 000:710.157 - 0.017ms returns 0x20000000
T1850 000:710.168 JLINK_ClrBPEx(BPHandle = 0x00000006)
T1850 000:710.178 - 0.014ms returns 0x00
T1850 000:710.189 JLINK_ReadReg(R0)
T1850 000:710.198 - 0.013ms returns 0x00000001
T1850 000:710.210 JLINK_HasError()
T1850 000:710.269 JLINK_WriteReg(R0, 0x00014000)
T1850 000:710.281 - 0.016ms returns 0
T1850 000:710.301 JLINK_WriteReg(R1, 0x00001000)
T1850 000:710.310 - 0.013ms returns 0
T1850 000:710.320 JLINK_WriteReg(R2, 0x000000FF)
T1850 000:710.329 - 0.013ms returns 0
T1850 000:710.340 JLINK_WriteReg(R3, 0x00000000)
T1850 000:710.349 - 0.013ms returns 0
T1850 000:710.359 JLINK_WriteReg(R4, 0x00000000)
T1850 000:710.369 - 0.013ms returns 0
T1850 000:710.379 JLINK_WriteReg(R5, 0x00000000)
T1850 000:710.388 - 0.013ms returns 0
T1850 000:710.398 JLINK_WriteReg(R6, 0x00000000)
T1850 000:710.407 - 0.013ms returns 0
T1850 000:710.417 JLINK_WriteReg(R7, 0x00000000)
T1850 000:710.426 - 0.013ms returns 0
T1850 000:710.436 JLINK_WriteReg(R8, 0x00000000)
T1850 000:710.445 - 0.013ms returns 0
T1850 000:710.455 JLINK_WriteReg(R9, 0x20000230)
T1850 000:710.464 - 0.013ms returns 0
T1850 000:710.474 JLINK_WriteReg(R10, 0x00000000)
T1850 000:710.483 - 0.013ms returns 0
T1850 000:710.493 JLINK_WriteReg(R11, 0x00000000)
T1850 000:710.502 - 0.013ms returns 0
T1850 000:710.512 JLINK_WriteReg(R12, 0x00000000)
T1850 000:710.524 - 0.016ms returns 0
T1850 000:710.535 JLINK_WriteReg(R13 (SP), 0x20002000)
T1850 000:710.544 - 0.013ms returns 0
T1850 000:710.554 JLINK_WriteReg(R14, 0x20000001)
T1850 000:710.563 - 0.013ms returns 0
T1850 000:710.573 JLINK_WriteReg(R15 (PC), 0x200000D8)
T1850 000:710.582 - 0.013ms returns 0
T1850 000:710.592 JLINK_WriteReg(XPSR, 0x01000000)
T1850 000:710.601 - 0.013ms returns 0
T1850 000:710.639 JLINK_WriteReg(MSP, 0x20002000)
T1850 000:710.686 - 0.052ms returns 0
T1850 000:710.697 JLINK_WriteReg(PSP, 0x20002000)
T1850 000:710.707 - 0.013ms returns 0
T1850 000:710.717 JLINK_WriteReg(CFBP, 0x00000000)
T1850 000:710.726 - 0.013ms returns 0
T1850 000:710.737 JLINK_SetBPEx(Addr = 0x20000000, Type = 0xFFFFFFF2)
T1850 000:710.748 - 0.015ms returns 0x00000007
T1850 000:710.758 JLINK_Go()
T1850 000:710.776   CPU_ReadMem(4 bytes @ 0xE0001000)
T1850 000:714.884 - 4.148ms
T1850 000:714.918 JLINK_IsHalted()
T1850 000:716.373 - 1.475ms returns FALSE
T1850 000:716.405 JLINK_HasError()
T1850 000:718.408 JLINK_IsHalted()
T1850 000:722.206   CPU_ReadMem(2 bytes @ 0x20000000)
T1850 000:723.548 - 5.156ms returns TRUE
T1850 000:723.580 JLINK_ReadReg(R15 (PC))
T1850 000:723.613 - 0.037ms returns 0x20000000
T1850 000:723.624 JLINK_ClrBPEx(BPHandle = 0x00000007)
T1850 000:723.634 - 0.014ms returns 0x00
T1850 000:723.646 JLINK_ReadReg(R0)
T1850 000:723.655 - 0.013ms returns 0x00000000
T1850 000:724.279 JLINK_HasError()
T1850 000:724.294 JLINK_WriteReg(R0, 0x00015000)
T1850 000:724.305 - 0.015ms returns 0
T1850 000:724.315 JLINK_WriteReg(R1, 0x00001000)
T1850 000:724.323 - 0.012ms returns 0
T1850 000:724.333 JLINK_WriteReg(R2, 0x000000FF)
T1850 000:724.341 - 0.012ms returns 0
T1850 000:724.351 JLINK_WriteReg(R3, 0x00000000)
T1850 000:724.359 - 0.012ms returns 0
T1850 000:724.368 JLINK_WriteReg(R4, 0x00000000)
T1850 000:724.376 - 0.012ms returns 0
T1850 000:724.386 JLINK_WriteReg(R5, 0x00000000)
T1850 000:724.394 - 0.012ms returns 0
T1850 000:724.403 JLINK_WriteReg(R6, 0x00000000)
T1850 000:724.412 - 0.012ms returns 0
T1850 000:724.421 JLINK_WriteReg(R7, 0x00000000)
T1850 000:724.429 - 0.012ms returns 0
T1850 000:724.439 JLINK_WriteReg(R8, 0x00000000)
T1850 000:724.447 - 0.012ms returns 0
T1850 000:724.456 JLINK_WriteReg(R9, 0x20000230)
T1850 000:724.464 - 0.012ms returns 0
T1850 000:724.474 JLINK_WriteReg(R10, 0x00000000)
T1850 000:724.482 - 0.012ms returns 0
T1850 000:724.491 JLINK_WriteReg(R11, 0x00000000)
T1850 000:724.500 - 0.012ms returns 0
T1850 000:724.509 JLINK_WriteReg(R12, 0x00000000)
T1850 000:724.517 - 0.012ms returns 0
T1850 000:724.526 JLINK_WriteReg(R13 (SP), 0x20002000)
T1850 000:724.535 - 0.012ms returns 0
T1850 000:724.545 JLINK_WriteReg(R14, 0x20000001)
T1850 000:724.561 - 0.020ms returns 0
T1850 000:724.571 JLINK_WriteReg(R15 (PC), 0x2000011A)
T1850 000:724.581 - 0.014ms returns 0
T1850 000:724.591 JLINK_WriteReg(XPSR, 0x01000000)
T1850 000:724.608 - 0.020ms returns 0
T1850 000:724.617 JLINK_WriteReg(MSP, 0x20002000)
T1850 000:724.625 - 0.012ms returns 0
T1850 000:724.635 JLINK_WriteReg(PSP, 0x20002000)
T1850 000:724.643 - 0.012ms returns 0
T1850 000:724.652 JLINK_WriteReg(CFBP, 0x00000000)
T1850 000:724.661 - 0.012ms returns 0
T1850 000:724.670 JLINK_SetBPEx(Addr = 0x20000000, Type = 0xFFFFFFF2)
T1850 000:724.680 - 0.021ms returns 0x00000008
T1850 000:724.698 JLINK_Go()
T1850 000:724.715   CPU_ReadMem(4 bytes @ 0xE0001000)
T1850 000:729.431 - 4.768ms
T1850 000:729.478 JLINK_IsHalted()
T1850 000:733.498   CPU_ReadMem(2 bytes @ 0x20000000)
T1850 000:734.790 - 5.328ms returns TRUE
T1850 000:734.819 JLINK_ReadReg(R15 (PC))
T1850 000:734.835 - 0.021ms returns 0x20000000
T1850 000:734.846 JLINK_ClrBPEx(BPHandle = 0x00000008)
T1850 000:734.856 - 0.014ms returns 0x00
T1850 000:734.866 JLINK_ReadReg(R0)
T1850 000:734.876 - 0.013ms returns 0x00000001
T1850 000:734.886 JLINK_HasError()
T1850 000:734.897 JLINK_WriteReg(R0, 0x00015000)
T1850 000:734.907 - 0.014ms returns 0
T1850 000:734.917 JLINK_WriteReg(R1, 0x00001000)
T1850 000:734.926 - 0.013ms returns 0
T1850 000:734.936 JLINK_WriteReg(R2, 0x000000FF)
T1850 000:734.945 - 0.013ms returns 0
T1850 000:734.955 JLINK_WriteReg(R3, 0x00000000)
T1850 000:734.964 - 0.013ms returns 0
T1850 000:734.974 JLINK_WriteReg(R4, 0x00000000)
T1850 000:734.983 - 0.013ms returns 0
T1850 000:734.993 JLINK_WriteReg(R5, 0x00000000)
T1850 000:735.002 - 0.013ms returns 0
T1850 000:735.012 JLINK_WriteReg(R6, 0x00000000)
T1850 000:735.021 - 0.013ms returns 0
T1850 000:735.031 JLINK_WriteReg(R7, 0x00000000)
T1850 000:735.040 - 0.013ms returns 0
T1850 000:735.050 JLINK_WriteReg(R8, 0x00000000)
T1850 000:735.059 - 0.013ms returns 0
T1850 000:735.069 JLINK_WriteReg(R9, 0x20000230)
T1850 000:735.078 - 0.013ms returns 0
T1850 000:735.088 JLINK_WriteReg(R10, 0x00000000)
T1850 000:735.097 - 0.013ms returns 0
T1850 000:735.107 JLINK_WriteReg(R11, 0x00000000)
T1850 000:735.116 - 0.013ms returns 0
T1850 000:735.126 JLINK_WriteReg(R12, 0x00000000)
T1850 000:735.135 - 0.013ms returns 0
T1850 000:735.145 JLINK_WriteReg(R13 (SP), 0x20002000)
T1850 000:735.155 - 0.013ms returns 0
T1850 000:735.245 JLINK_WriteReg(R14, 0x20000001)
T1850 000:735.260 - 0.020ms returns 0
T1850 000:735.271 JLINK_WriteReg(R15 (PC), 0x200000D8)
T1850 000:735.280 - 0.013ms returns 0
T1850 000:735.290 JLINK_WriteReg(XPSR, 0x01000000)
T1850 000:735.300 - 0.013ms returns 0
T1850 000:735.316 JLINK_WriteReg(MSP, 0x20002000)
T1850 000:735.326 - 0.014ms returns 0
T1850 000:735.336 JLINK_WriteReg(PSP, 0x20002000)
T1850 000:735.345 - 0.013ms returns 0
T1850 000:735.355 JLINK_WriteReg(CFBP, 0x00000000)
T1850 000:735.364 - 0.013ms returns 0
T1850 000:735.375 JLINK_SetBPEx(Addr = 0x20000000, Type = 0xFFFFFFF2)
T1850 000:735.385 - 0.014ms returns 0x00000009
T1850 000:735.395 JLINK_Go()
T1850 000:735.411   CPU_ReadMem(4 bytes @ 0xE0001000)
T1850 000:740.301 - 4.920ms
T1850 000:740.326 JLINK_IsHalted()
T1850 000:741.603 - 1.292ms returns FALSE
T1850 000:741.629 JLINK_HasError()
T1850 000:743.622 JLINK_IsHalted()
T1850 000:747.265   CPU_ReadMem(2 bytes @ 0x20000000)
T1850 000:748.507 - 4.902ms returns TRUE
T1850 000:748.535 JLINK_ReadReg(R15 (PC))
T1850 000:748.552 - 0.023ms returns 0x20000000
T1850 000:748.566 JLINK_ClrBPEx(BPHandle = 0x00000009)
T1850 000:748.577 - 0.014ms returns 0x00
T1850 000:748.587 JLINK_ReadReg(R0)
T1850 000:748.597 - 0.013ms returns 0x00000000
T1850 000:749.237 JLINK_HasError()
T1850 000:749.254 JLINK_WriteReg(R0, 0x00016000)
T1850 000:749.265 - 0.016ms returns 0
T1850 000:749.276 JLINK_WriteReg(R1, 0x00001000)
T1850 000:749.285 - 0.013ms returns 0
T1850 000:749.296 JLINK_WriteReg(R2, 0x000000FF)
T1850 000:749.305 - 0.013ms returns 0
T1850 000:749.315 JLINK_WriteReg(R3, 0x00000000)
T1850 000:749.325 - 0.013ms returns 0
T1850 000:749.335 JLINK_WriteReg(R4, 0x00000000)
T1850 000:749.344 - 0.013ms returns 0
T1850 000:749.354 JLINK_WriteReg(R5, 0x00000000)
T1850 000:749.363 - 0.013ms returns 0
T1850 000:749.373 JLINK_WriteReg(R6, 0x00000000)
T1850 000:749.382 - 0.013ms returns 0
T1850 000:749.392 JLINK_WriteReg(R7, 0x00000000)
T1850 000:749.401 - 0.013ms returns 0
T1850 000:749.411 JLINK_WriteReg(R8, 0x00000000)
T1850 000:749.420 - 0.013ms returns 0
T1850 000:749.430 JLINK_WriteReg(R9, 0x20000230)
T1850 000:749.439 - 0.013ms returns 0
T1850 000:749.449 JLINK_WriteReg(R10, 0x00000000)
T1850 000:749.459 - 0.013ms returns 0
T1850 000:749.469 JLINK_WriteReg(R11, 0x00000000)
T1850 000:749.479 - 0.015ms returns 0
T1850 000:749.490 JLINK_WriteReg(R12, 0x00000000)
T1850 000:749.499 - 0.013ms returns 0
T1850 000:749.509 JLINK_WriteReg(R13 (SP), 0x20002000)
T1850 000:749.518 - 0.014ms returns 0
T1850 000:749.529 JLINK_WriteReg(R14, 0x20000001)
T1850 000:749.538 - 0.013ms returns 0
T1850 000:749.548 JLINK_WriteReg(R15 (PC), 0x2000011A)
T1850 000:749.557 - 0.013ms returns 0
T1850 000:749.567 JLINK_WriteReg(XPSR, 0x01000000)
T1850 000:749.576 - 0.013ms returns 0
T1850 000:749.586 JLINK_WriteReg(MSP, 0x20002000)
T1850 000:749.595 - 0.013ms returns 0
T1850 000:749.605 JLINK_WriteReg(PSP, 0x20002000)
T1850 000:749.614 - 0.013ms returns 0
T1850 000:749.624 JLINK_WriteReg(CFBP, 0x00000000)
T1850 000:749.633 - 0.013ms returns 0
T1850 000:749.644 JLINK_SetBPEx(Addr = 0x20000000, Type = 0xFFFFFFF2)
T1850 000:749.654 - 0.014ms returns 0x0000000A
T1850 000:749.664 JLINK_Go()
T1850 000:749.681   CPU_ReadMem(4 bytes @ 0xE0001000)
T1850 000:754.012 - 4.366ms
T1850 000:754.042 JLINK_IsHalted()
T1850 000:758.123   CPU_ReadMem(2 bytes @ 0x20000000)
T1850 000:759.367 - 5.340ms returns TRUE
T1850 000:759.393 JLINK_ReadReg(R15 (PC))
T1850 000:759.408 - 0.021ms returns 0x20000000
T1850 000:759.422 JLINK_ClrBPEx(BPHandle = 0x0000000A)
T1850 000:759.433 - 0.014ms returns 0x00
T1850 000:759.443 JLINK_ReadReg(R0)
T1850 000:759.451 - 0.012ms returns 0x00000001
T1850 000:759.461 JLINK_HasError()
T1850 000:759.471 JLINK_WriteReg(R0, 0x00016000)
T1850 000:759.480 - 0.013ms returns 0
T1850 000:759.490 JLINK_WriteReg(R1, 0x00001000)
T1850 000:759.498 - 0.012ms returns 0
T1850 000:759.508 JLINK_WriteReg(R2, 0x000000FF)
T1850 000:759.516 - 0.012ms returns 0
T1850 000:759.532 JLINK_WriteReg(R3, 0x00000000)
T1850 000:759.545 - 0.017ms returns 0
T1850 000:759.555 JLINK_WriteReg(R4, 0x00000000)
T1850 000:759.563 - 0.012ms returns 0
T1850 000:759.573 JLINK_WriteReg(R5, 0x00000000)
T1850 000:759.581 - 0.012ms returns 0
T1850 000:759.590 JLINK_WriteReg(R6, 0x00000000)
T1850 000:759.599 - 0.012ms returns 0
T1850 000:759.608 JLINK_WriteReg(R7, 0x00000000)
T1850 000:759.617 - 0.012ms returns 0
T1850 000:759.626 JLINK_WriteReg(R8, 0x00000000)
T1850 000:759.635 - 0.012ms returns 0
T1850 000:759.644 JLINK_WriteReg(R9, 0x20000230)
T1850 000:759.653 - 0.012ms returns 0
T1850 000:759.662 JLINK_WriteReg(R10, 0x00000000)
T1850 000:759.671 - 0.012ms returns 0
T1850 000:759.680 JLINK_WriteReg(R11, 0x00000000)
T1850 000:759.689 - 0.012ms returns 0
T1850 000:759.698 JLINK_WriteReg(R12, 0x00000000)
T1850 000:759.707 - 0.012ms returns 0
T1850 000:759.716 JLINK_WriteReg(R13 (SP), 0x20002000)
T1850 000:759.725 - 0.012ms returns 0
T1850 000:759.735 JLINK_WriteReg(R14, 0x20000001)
T1850 000:759.743 - 0.012ms returns 0
T1850 000:759.752 JLINK_WriteReg(R15 (PC), 0x200000D8)
T1850 000:759.761 - 0.012ms returns 0
T1850 000:759.770 JLINK_WriteReg(XPSR, 0x01000000)
T1850 000:759.779 - 0.012ms returns 0
T1850 000:759.788 JLINK_WriteReg(MSP, 0x20002000)
T1850 000:759.797 - 0.012ms returns 0
T1850 000:759.806 JLINK_WriteReg(PSP, 0x20002000)
T1850 000:759.815 - 0.012ms returns 0
T1850 000:759.824 JLINK_WriteReg(CFBP, 0x00000000)
T1850 000:759.833 - 0.012ms returns 0
T1850 000:759.842 JLINK_SetBPEx(Addr = 0x20000000, Type = 0xFFFFFFF2)
T1850 000:759.851 - 0.013ms returns 0x0000000B
T1850 000:759.861 JLINK_Go()
T1850 000:759.875   CPU_ReadMem(4 bytes @ 0xE0001000)
T1850 000:764.111 - 4.284ms
T1850 000:764.167 JLINK_IsHalted()
T1850 000:765.449 - 1.315ms returns FALSE
T1850 000:765.504 JLINK_HasError()
T1850 000:771.774 JLINK_IsHalted()
T1850 000:775.859   CPU_ReadMem(2 bytes @ 0x20000000)
T1850 000:777.100 - 5.358ms returns TRUE
T1850 000:777.159 JLINK_ReadReg(R15 (PC))
T1850 000:777.184 - 0.035ms returns 0x20000000
T1850 000:777.210 JLINK_ClrBPEx(BPHandle = 0x0000000B)
T1850 000:777.230 - 0.029ms returns 0x00
T1850 000:777.369 JLINK_ReadReg(R0)
T1850 000:777.424 - 0.066ms returns 0x00000000
T1850 000:778.160 JLINK_HasError()
T1850 000:778.193 JLINK_WriteReg(R0, 0x00000001)
T1850 000:778.217 - 0.033ms returns 0
T1850 000:778.239 JLINK_WriteReg(R1, 0x00001000)
T1850 000:778.259 - 0.032ms returns 0
T1850 000:778.284 JLINK_WriteReg(R2, 0x000000FF)
T1850 000:778.303 - 0.029ms returns 0
T1850 000:778.325 JLINK_WriteReg(R3, 0x00000000)
T1850 000:778.344 - 0.028ms returns 0
T1850 000:778.365 JLINK_WriteReg(R4, 0x00000000)
T1850 000:778.384 - 0.027ms returns 0
T1850 000:778.405 JLINK_WriteReg(R5, 0x00000000)
T1850 000:778.424 - 0.028ms returns 0
T1850 000:778.445 JLINK_WriteReg(R6, 0x00000000)
T1850 000:778.463 - 0.027ms returns 0
T1850 000:778.484 JLINK_WriteReg(R7, 0x00000000)
T1850 000:778.503 - 0.027ms returns 0
T1850 000:778.524 JLINK_WriteReg(R8, 0x00000000)
T1850 000:778.543 - 0.028ms returns 0
T1850 000:778.564 JLINK_WriteReg(R9, 0x20000230)
T1850 000:778.583 - 0.027ms returns 0
T1850 000:778.604 JLINK_WriteReg(R10, 0x00000000)
T1850 000:778.623 - 0.028ms returns 0
T1850 000:778.644 JLINK_WriteReg(R11, 0x00000000)
T1850 000:778.663 - 0.027ms returns 0
T1850 000:778.684 JLINK_WriteReg(R12, 0x00000000)
T1850 000:778.703 - 0.027ms returns 0
T1850 000:778.724 JLINK_WriteReg(R13 (SP), 0x20002000)
T1850 000:778.743 - 0.028ms returns 0
T1850 000:778.765 JLINK_WriteReg(R14, 0x20000001)
T1850 000:778.783 - 0.028ms returns 0
T1850 000:778.805 JLINK_WriteReg(R15 (PC), 0x2000008E)
T1850 000:778.823 - 0.027ms returns 0
T1850 000:778.844 JLINK_WriteReg(XPSR, 0x01000000)
T1850 000:778.863 - 0.028ms returns 0
T1850 000:778.884 JLINK_WriteReg(MSP, 0x20002000)
T1850 000:778.903 - 0.027ms returns 0
T1850 000:778.924 JLINK_WriteReg(PSP, 0x20002000)
T1850 000:778.943 - 0.027ms returns 0
T1850 000:778.964 JLINK_WriteReg(CFBP, 0x00000000)
T1850 000:778.982 - 0.037ms returns 0
T1850 000:779.020 JLINK_SetBPEx(Addr = 0x20000000, Type = 0xFFFFFFF2)
T1850 000:779.042 - 0.031ms returns 0x0000000C
T1850 000:779.064 JLINK_Go()
T1850 000:779.100   CPU_ReadMem(4 bytes @ 0xE0001000)
T1850 000:783.652 - 4.633ms
T1850 000:783.719 JLINK_IsHalted()
T1850 000:787.694   CPU_ReadMem(2 bytes @ 0x20000000)
T1850 000:788.978 - 5.291ms returns TRUE
T1850 000:789.032 JLINK_ReadReg(R15 (PC))
T1850 000:789.059 - 0.035ms returns 0x20000000
T1850 000:789.081 JLINK_ClrBPEx(BPHandle = 0x0000000C)
T1850 000:789.100 - 0.028ms returns 0x00
T1850 000:789.122 JLINK_ReadReg(R0)
T1850 000:789.141 - 0.027ms returns 0x00000000
T1850 000:859.111 JLINK_WriteMem(0x20000000, 0x234 Bytes, ...)
T1850 000:859.147   Data:  00 BE 0A E0 0D 78 2D 06 68 40 08 24 40 00 00 D3 ...
T1850 000:859.196   CPU_WriteMem(564 bytes @ 0x20000000)
T1850 000:861.868 - 2.788ms returns 0x234
T1850 000:861.968 JLINK_HasError()
T1850 000:861.994 JLINK_WriteReg(R0, 0x00000000)
T1850 000:862.018 - 0.034ms returns 0
T1850 000:862.041 JLINK_WriteReg(R1, 0x03D09000)
T1850 000:862.059 - 0.028ms returns 0
T1850 000:862.081 JLINK_WriteReg(R2, 0x00000002)
T1850 000:862.099 - 0.027ms returns 0
T1850 000:862.120 JLINK_WriteReg(R3, 0x00000000)
T1850 000:862.139 - 0.027ms returns 0
T1850 000:862.160 JLINK_WriteReg(R4, 0x00000000)
T1850 000:862.179 - 0.027ms returns 0
T1850 000:862.200 JLINK_WriteReg(R5, 0x00000000)
T1850 000:862.218 - 0.027ms returns 0
T1850 000:862.239 JLINK_WriteReg(R6, 0x00000000)
T1850 000:862.258 - 0.027ms returns 0
T1850 000:862.279 JLINK_WriteReg(R7, 0x00000000)
T1850 000:862.297 - 0.027ms returns 0
T1850 000:862.318 JLINK_WriteReg(R8, 0x00000000)
T1850 000:862.337 - 0.027ms returns 0
T1850 000:862.358 JLINK_WriteReg(R9, 0x20000230)
T1850 000:862.377 - 0.028ms returns 0
T1850 000:862.398 JLINK_WriteReg(R10, 0x00000000)
T1850 000:862.417 - 0.027ms returns 0
T1850 000:862.438 JLINK_WriteReg(R11, 0x00000000)
T1850 000:862.456 - 0.027ms returns 0
T1850 000:862.477 JLINK_WriteReg(R12, 0x00000000)
T1850 000:862.496 - 0.027ms returns 0
T1850 000:862.517 JLINK_WriteReg(R13 (SP), 0x20002000)
T1850 000:862.537 - 0.029ms returns 0
T1850 000:862.558 JLINK_WriteReg(R14, 0x20000001)
T1850 000:862.577 - 0.027ms returns 0
T1850 000:862.597 JLINK_WriteReg(R15 (PC), 0x2000003C)
T1850 000:862.616 - 0.027ms returns 0
T1850 000:862.637 JLINK_WriteReg(XPSR, 0x01000000)
T1850 000:862.656 - 0.027ms returns 0
T1850 000:862.677 JLINK_WriteReg(MSP, 0x20002000)
T1850 000:862.695 - 0.027ms returns 0
T1850 000:862.716 JLINK_WriteReg(PSP, 0x20002000)
T1850 000:862.735 - 0.027ms returns 0
T1850 000:862.755 JLINK_WriteReg(CFBP, 0x00000000)
T1850 000:862.774 - 0.027ms returns 0
T1850 000:862.795 JLINK_SetBPEx(Addr = 0x20000000, Type = 0xFFFFFFF2)
T1850 000:862.823   CPU_ReadMem(2 bytes @ 0x20000000)
T1850 000:863.894 - 1.130ms returns 0x0000000D
T1850 000:863.945 JLINK_Go()
T1850 000:863.973   CPU_WriteMem(2 bytes @ 0x20000000)
T1850 000:865.213   CPU_ReadMem(4 bytes @ 0xE0001000)
T1850 000:870.205 - 6.293ms
T1850 000:870.258 JLINK_IsHalted()
T1850 000:874.086   CPU_ReadMem(2 bytes @ 0x20000000)
T1850 000:875.455 - 5.227ms returns TRUE
T1850 000:875.505 JLINK_ReadReg(R15 (PC))
T1850 000:875.530 - 0.034ms returns 0x20000000
T1850 000:875.553 JLINK_ClrBPEx(BPHandle = 0x0000000D)
T1850 000:875.572 - 0.028ms returns 0x00
T1850 000:875.594 JLINK_ReadReg(R0)
T1850 000:875.612 - 0.027ms returns 0x00000000
T1850 000:876.354 JLINK_WriteMem(0x20000234, 0x1CC Bytes, ...)
T1850 000:876.384   Data:  D0 2E 00 20 4D 22 01 00 55 22 01 00 19 22 01 00 ...
T1850 000:876.429   CPU_WriteMem(460 bytes @ 0x20000234)
T1850 000:878.695 - 2.371ms returns 0x1CC
T1850 000:878.744 JLINK_WriteMem(0x20000400, 0x400 Bytes, ...)
T1850 000:878.764   Data:  00 00 00 00 00 00 00 00 00 00 00 00 00 00 00 00 ...
T1850 000:878.807   CPU_WriteMem(1024 bytes @ 0x20000400)
T1850 000:882.817 - 4.117ms returns 0x400
T1850 000:882.889 JLINK_WriteMem(0x20000800, 0x400 Bytes, ...)
T1850 000:882.913   Data:  83 EA 05 01 08 43 05 D0 10 1B AB 41 06 D2 01 22 ...
T1850 000:882.991   CPU_WriteMem(1024 bytes @ 0x20000800)
T1850 000:886.990 - 4.146ms returns 0x400
T1850 000:887.062 JLINK_WriteMem(0x20000C00, 0x400 Bytes, ...)
T1850 000:887.083   Data:  02 F0 F4 FB 00 28 5D D0 03 98 4F EA 90 1A 38 46 ...
T1850 000:887.134   CPU_WriteMem(1024 bytes @ 0x20000C00)
T1850 000:891.265 - 4.251ms returns 0x400
T1850 000:891.343 JLINK_WriteMem(0x20001000, 0x234 Bytes, ...)
T1850 000:891.364   Data:  40 AA F5 EE C0 AA F1 EE 10 FA 04 D1 24 B0 BD EC ...
T1850 000:891.413   CPU_WriteMem(564 bytes @ 0x20001000)
T1850 000:894.192 - 2.886ms returns 0x234
T1850 000:894.257 JLINK_HasError()
T1850 000:894.282 JLINK_WriteReg(R0, 0x00012000)
T1850 000:894.308 - 0.036ms returns 0
T1850 000:894.337 JLINK_WriteReg(R1, 0x00001000)
T1850 000:894.358 - 0.030ms returns 0
T1850 000:894.382 JLINK_WriteReg(R2, 0x20000234)
T1850 000:894.401 - 0.028ms returns 0
T1850 000:894.425 JLINK_WriteReg(R3, 0x00000000)
T1850 000:894.445 - 0.028ms returns 0
T1850 000:894.597 JLINK_WriteReg(R4, 0x00000000)
T1850 000:894.651 - 0.066ms returns 0
T1850 000:894.677 JLINK_WriteReg(R5, 0x00000000)
T1850 000:894.696 - 0.028ms returns 0
T1850 000:894.718 JLINK_WriteReg(R6, 0x00000000)
T1850 000:894.737 - 0.027ms returns 0
T1850 000:894.758 JLINK_WriteReg(R7, 0x00000000)
T1850 000:894.776 - 0.027ms returns 0
T1850 000:894.797 JLINK_WriteReg(R8, 0x00000000)
T1850 000:894.816 - 0.028ms returns 0
T1850 000:894.838 JLINK_WriteReg(R9, 0x20000230)
T1850 000:894.857 - 0.027ms returns 0
T1850 000:894.878 JLINK_WriteReg(R10, 0x00000000)
T1850 000:894.897 - 0.031ms returns 0
T1850 000:894.921 JLINK_WriteReg(R11, 0x00000000)
T1850 000:894.940 - 0.027ms returns 0
T1850 000:894.961 JLINK_WriteReg(R12, 0x00000000)
T1850 000:894.979 - 0.027ms returns 0
T1850 000:895.000 JLINK_WriteReg(R13 (SP), 0x20002000)
T1850 000:895.020 - 0.029ms returns 0
T1850 000:895.042 JLINK_WriteReg(R14, 0x20000001)
T1850 000:895.060 - 0.027ms returns 0
T1850 000:895.081 JLINK_WriteReg(R15 (PC), 0x20000156)
T1850 000:895.100 - 0.028ms returns 0
T1850 000:895.121 JLINK_WriteReg(XPSR, 0x01000000)
T1850 000:895.140 - 0.027ms returns 0
T1850 000:895.160 JLINK_WriteReg(MSP, 0x20002000)
T1850 000:895.179 - 0.027ms returns 0
T1850 000:895.200 JLINK_WriteReg(PSP, 0x20002000)
T1850 000:895.218 - 0.027ms returns 0
T1850 000:895.239 JLINK_WriteReg(CFBP, 0x00000000)
T1850 000:895.258 - 0.027ms returns 0
T1850 000:895.279 JLINK_SetBPEx(Addr = 0x20000000, Type = 0xFFFFFFF2)
T1850 000:895.301 - 0.031ms returns 0x0000000E
T1850 000:895.323 JLINK_Go()
T1850 000:895.357   CPU_ReadMem(4 bytes @ 0xE0001000)
T1850 000:899.741 - 4.466ms
T1850 000:899.811 JLINK_IsHalted()
T1850 000:901.123 - 1.341ms returns FALSE
T1850 000:901.181 JLINK_HasError()
T1850 000:907.953 JLINK_IsHalted()
T1850 000:908.819 - 0.897ms returns FALSE
T1850 000:908.869 JLINK_HasError()
T1850 000:910.822 JLINK_IsHalted()
T1850 000:911.912 - 1.109ms returns FALSE
T1850 000:911.944 JLINK_HasError()
T1850 000:913.895 JLINK_IsHalted()
T1850 000:914.963 - 1.086ms returns FALSE
T1850 000:914.994 JLINK_HasError()
T1850 000:916.908 JLINK_IsHalted()
T1850 000:918.102 - 1.214ms returns FALSE
T1850 000:918.136 JLINK_HasError()
T1850 000:919.908 JLINK_IsHalted()
T1850 000:920.717 - 0.836ms returns FALSE
T1850 000:920.758 JLINK_HasError()
T1850 000:922.700 JLINK_IsHalted()
T1850 000:923.834 - 1.161ms returns FALSE
T1850 000:923.872 JLINK_HasError()
T1850 000:925.811 JLINK_IsHalted()
T1850 000:926.922 - 1.142ms returns FALSE
T1850 000:926.964 JLINK_HasError()
T1850 000:928.387 JLINK_IsHalted()
T1850 000:929.474 - 1.116ms returns FALSE
T1850 000:929.514 JLINK_HasError()
T1850 000:930.913 JLINK_IsHalted()
T1850 000:931.935 - 1.041ms returns FALSE
T1850 000:931.967 JLINK_HasError()
T1850 000:934.911 JLINK_IsHalted()
T1850 000:935.662 - 0.770ms returns FALSE
T1850 000:935.695 JLINK_HasError()
T1850 000:936.909 JLINK_IsHalted()
T1850 000:937.522 - 0.632ms returns FALSE
T1850 000:937.553 JLINK_HasError()
T1850 000:938.926 JLINK_IsHalted()
T1850 000:940.232 - 1.335ms returns FALSE
T1850 000:940.272 JLINK_HasError()
T1850 000:942.209 JLINK_IsHalted()
T1850 000:943.377 - 1.186ms returns FALSE
T1850 000:943.406 JLINK_HasError()
T1850 000:945.366 JLINK_IsHalted()
T1850 000:946.408 - 1.061ms returns FALSE
T1850 000:946.445 JLINK_HasError()
T1850 000:948.338 JLINK_IsHalted()
T1850 000:949.498 - 1.192ms returns FALSE
T1850 000:949.542 JLINK_HasError()
T1850 000:951.336 JLINK_IsHalted()
T1850 000:952.092 - 0.784ms returns FALSE
T1850 000:952.132 JLINK_HasError()
T1850 000:954.075 JLINK_IsHalted()
T1850 000:955.253 - 1.206ms returns FALSE
T1850 000:955.293 JLINK_HasError()
T1850 000:957.238 JLINK_IsHalted()
T1850 000:958.374 - 1.166ms returns FALSE
T1850 000:958.415 JLINK_HasError()
T1850 000:960.437 JLINK_IsHalted()
T1850 000:961.468 - 1.050ms returns FALSE
T1850 000:961.500 JLINK_HasError()
T1850 000:963.341 JLINK_IsHalted()
T1850 000:964.552 - 1.233ms returns FALSE
T1850 000:964.588 JLINK_HasError()
T1850 000:966.334 JLINK_IsHalted()
T1850 000:967.119 - 0.812ms returns FALSE
T1850 000:967.157 JLINK_HasError()
T1850 000:969.096 JLINK_IsHalted()
T1850 000:972.932   CPU_ReadMem(2 bytes @ 0x20000000)
T1850 000:974.203 - 5.137ms returns TRUE
T1850 000:974.257 JLINK_ReadReg(R15 (PC))
T1850 000:974.283 - 0.035ms returns 0x20000000
T1850 000:974.308 JLINK_ClrBPEx(BPHandle = 0x0000000E)
T1850 000:974.343 - 0.044ms returns 0x00
T1850 000:974.367 JLINK_ReadReg(R0)
T1850 000:974.387 - 0.029ms returns 0x00000000
T1850 000:975.624 JLINK_WriteMem(0x20000234, 0x1CC Bytes, ...)
T1850 000:975.655   Data:  3D EE CF 1A 49 EE 81 0A 70 EE EC 0A 29 EE 88 1A ...
T1850 000:975.696   CPU_WriteMem(460 bytes @ 0x20000234)
T1850 000:978.024 - 2.430ms returns 0x1CC
T1850 000:978.073 JLINK_WriteMem(0x20000400, 0x400 Bytes, ...)
T1850 000:978.093   Data:  DD ED 12 0A F1 EE 60 0A 60 EE 88 0A 49 EE CB 0A ...
